
T19B0 000:478 SEGGER J-Link V4.80g Log File (0001ms, 0346ms total)
T19B0 000:478 DLL Compiled: Feb 13 2014 20:50:02 (0001ms, 0346ms total)
T19B0 000:478 Logging started @ 2016-09-14 10:46 (0001ms, 0346ms total)
T19B0 000:479 JLINK_SetWarnOutHandler(...) (0001ms, 0347ms total)
T19B0 000:480 JLINK_OpenEx(...)
Firmware: J-Link ARM-OB STM32 compiled Aug 22 2012 19:52:04
Hardware: V7.00
S/N: 20160516
Feature(s): RDI,FlashDL,FlashBP,JFlash,GDBFull  returns O.K. (0330ms, 0677ms total)
T19B0 000:810 JLINK_SetErrorOutHandler(...) (0000ms, 0677ms total)
T19B0 000:810 JLINK_ExecCommand("ProjectFile = "C:\Users\jlkkkk\Desktop\NETMARK_T800\NETMARK_T800_F103 v1.2.0\Project\JLinkSettings.ini"", ...)  returns 0x00 (0000ms, 0677ms total)
T19B0 000:838 JLINK_ExecCommand("Device = STM32F103C8", ...)Device "STM32F103C8" selected (64 KB flash, 20 KB RAM).  returns 0x00 (0002ms, 0679ms total)
T19B0 000:840 JLINK_ExecCommand("DisableConnectionTimeout", ...)  returns 0x01 (0000ms, 0679ms total)
T19B0 000:840 JLINK_GetHardwareVersion()  returns 0x11170 (0001ms, 0680ms total)
T19B0 000:841 JLINK_GetDLLVersion()  returns 48007 (0000ms, 0680ms total)
T19B0 000:841 JLINK_GetFirmwareString(...) (0000ms, 0680ms total)
T19B0 000:847 JLINK_GetDLLVersion()  returns 48007 (0000ms, 0680ms total)
T19B0 000:847 JLINK_GetCompileDateTime() (0000ms, 0680ms total)
T19B0 000:848 JLINK_GetFirmwareString(...) (0000ms, 0680ms total)
T19B0 000:850 JLINK_GetHardwareVersion()  returns 0x11170 (0000ms, 0680ms total)
T19B0 000:860 JLINK_TIF_Select(JLINKARM_TIF_SWD)  returns 0x00 (0004ms, 0684ms total)
T19B0 000:864 JLINK_SetSpeed(2000) (0000ms, 0684ms total)
T19B0 000:865 JLINK_GetId() >0x108 TIF>Found SWD-DP with ID 0x1BA01477 >0x0D TIF> >0x28 TIF> >0x0D TIF> >0x28 TIF> >0x0D TIF> >0x21 TIF> >0x0D TIF> >0x28 TIF> >0x0D TIF> >0x28 TIF> >0x0D TIF> >0x28 TIF> >0x0D TIF> >0x21 TIF> >0x0D TIF> >0x21 TIF> >0x0D TIF> >0x28 TIF> >0x0D TIF> >0x21 TIF> >0x0D TIF> >0x21 TIF> >0x0D TIF> >0x28 TIF> >0x0D TIF> >0x28 TIF> >0x108 TIF>Found SWD-DP with ID 0x1BA01477 >0x0D TIF> >0x21 TIF> >0x0D TIF> >0x28 TIF> >0x0D TIF> >0x28 TIF> >0x0D TIF> >0x21 TIF> >0x0D TIF> >0x28 TIF>
 >0x0D TIF> >0x21 TIF> >0x0D TIF> >0x21 TIF> >0x0D TIF> >0x21 TIF> >0x0D TIF> >0x21 TIF> >0x0D TIF> >0x28 TIF> >0x0D TIF> >0x28 TIF> >0x0D TIF> >0x21 TIF> >0x0D TIF> >0x28 TIF> >0x0D TIF> >0x28 TIF> >0x0D TIF> >0x28 TIF> >0x0D TIF> >0x21 TIF> >0x0D TIF> >0x21 TIF> >0x0D TIF> >0x28 TIF> >0x0D TIF> >0x21 TIF> >0x0D TIF> >0x21 TIF>Found Cortex-M3 r1p1, Little endian. -- CPU_WriteMem(4 bytes @ 0xE0002000) -- CPU_ReadMem(4 bytes @ 0xE000EDF0) -- CPU_WriteMem(4 bytes @ 0xE000EDF0)
 -- CPU_ReadMem(4 bytes @ 0xE0002000)FPUnit: 6 code (BP) slots and 2 literal slots -- CPU_ReadMem(4 bytes @ 0xE000EDFC) -- CPU_WriteMem(4 bytes @ 0xE000EDFC) -- CPU_ReadMem(4 bytes @ 0xE0001000) -- CPU_WriteMem(4 bytes @ 0xE0001000) -- CPU_ReadMem(4 bytes @ 0xE00FF010)TPIU fitted. -- CPU_ReadMem(4 bytes @ 0xE00FF014) -- CPU_ReadMem(4 bytes @ 0xE00FF018) >0x0D TIF> >0x21 TIF>  returns 0x1BA01477 (0121ms, 0806ms total)
T19B0 000:986 JLINK_GetDeviceFamily()  returns 3 (0000ms, 0806ms total)
T19B0 000:992 JLINK_ReadMem (0xE00FFFF0, 0x0010 Bytes, ...) -- CPU is running -- CPU_ReadMem(16 bytes @ 0xE00FFFF0) -- Data:  0D 00 00 00 10 00 00 00 05 00 00 00 B1 00 00 00  returns 0x00 (0002ms, 0808ms total)
T19B0 000:994 JLINK_ReadMem (0xE00FFFD0, 0x0020 Bytes, ...) -- CPU is running -- CPU_ReadMem(32 bytes @ 0xE00FFFD0) -- Data:  00 00 00 00 00 00 00 00 00 00 00 00 00 00 00 00 ...  returns 0x00 (0002ms, 0810ms total)
T19B0 000:996 JLINK_ReadMem (0xE00FF000, 0x0018 Bytes, ...) -- CPU is running -- CPU_ReadMem(24 bytes @ 0xE00FF000) -- Data:  03 F0 F0 FF 03 20 F0 FF 03 30 F0 FF 03 10 F0 FF ...  returns 0x00 (0002ms, 0812ms total)
T19B0 000:998 JLINK_ReadMemU32(0xE000ED00, 0x0001 Items, ...) -- CPU is running -- CPU_ReadMem(4 bytes @ 0xE000ED00) -- Data:  31 C2 1F 41  returns 0x01 (0001ms, 0813ms total)
T19B0 000:999 JLINK_SetResetType(JLINKARM_RESET_TYPE_NORMAL)  returns JLINKARM_RESET_TYPE_NORMAL (0000ms, 0813ms total)
T19B0 000:999 JLINK_Reset() -- CPU is running -- CPU_WriteMem(4 bytes @ 0xE000EDF0) -- CPU is running -- CPU_WriteMem(4 bytes @ 0xE000EDFC) >0x35 TIF> -- CPU is running -- CPU_WriteMem(4 bytes @ 0xE000ED0C) -- CPU is running -- CPU_ReadMem(4 bytes @ 0xE000EDF0) -- CPU is running -- CPU_ReadMem(4 bytes @ 0xE000EDF0) -- CPU is running -- CPU_WriteMem(4 bytes @ 0xE000EDF0) -- CPU is running -- CPU_WriteMem(4 bytes @ 0xE000EDFC) -- CPU is running -- CPU_ReadMem(4 bytes @ 0xE000EDF0)
 -- CPU_WriteMem(4 bytes @ 0xE0002000) -- CPU_ReadMem(4 bytes @ 0xE000EDFC) -- CPU_ReadMem(4 bytes @ 0xE0001000) (0029ms, 0842ms total)
T19B0 001:028 JLINK_Halt()  returns 0x00 (0001ms, 0843ms total)
T19B0 001:029 JLINK_IsHalted()  returns TRUE (0001ms, 0844ms total)
T19B0 001:030 JLINK_ReadMemU32(0xE000EDF0, 0x0001 Items, ...) -- CPU_ReadMem(4 bytes @ 0xE000EDF0) -- Data:  03 00 03 00  returns 0x01 (0001ms, 0844ms total)
T19B0 001:032 JLINK_WriteU32(0xE000EDF0, 0xA05F0003) -- CPU_WriteMem(4 bytes @ 0xE000EDF0)  returns 0x00 (0000ms, 0844ms total)
T19B0 001:032 JLINK_WriteU32(0xE000EDFC, 0x01000000) -- CPU_WriteMem(4 bytes @ 0xE000EDFC)  returns 0x00 (0001ms, 0845ms total)
T19B0 001:059 JLINK_GetHWStatus(...)  returns 0x00 (0001ms, 0846ms total)
T19B0 001:077 JLINK_GetNumBPUnits(Type = 0xFFFFFF00)  returns 0x06 (0000ms, 0846ms total)
T19B0 001:077 JLINK_GetNumBPUnits(Type = 0xF0)  returns 0x2000 (0000ms, 0846ms total)
T19B0 001:077 JLINK_GetNumWPUnits()  returns 0x04 (0000ms, 0846ms total)
T19B0 001:087 JLINK_GetSpeed()  returns 0x7D0 (0000ms, 0846ms total)
T19B0 001:091 JLINK_ReadMemU32(0xE000E004, 0x0001 Items, ...) -- CPU_ReadMem(4 bytes @ 0xE000E004) -- Data:  01 00 00 00  returns 0x01 (0002ms, 0848ms total)
T19B0 001:093 JLINK_ReadMemU32(0xE000E004, 0x0001 Items, ...) -- CPU_ReadMem(4 bytes @ 0xE000E004) -- Data:  01 00 00 00  returns 0x01 (0001ms, 0849ms total)
T19B0 001:094 JLINK_WriteMem(0xE0001000, 0x001C Bytes, ...) -- Data:  01 00 00 00 00 00 00 00 00 00 00 00 00 00 00 00 ... -- CPU_WriteMem(28 bytes @ 0xE0001000)  returns 0x1C (0002ms, 0851ms total)
T19B0 001:096 JLINK_ReadMem (0xE0001000, 0x001C Bytes, ...) -- CPU_ReadMem(28 bytes @ 0xE0001000) -- Data:  01 00 00 40 00 00 00 00 00 00 00 00 00 00 00 00 ...  returns 0x00 (0002ms, 0853ms total)
T19B0 001:098 JLINK_Halt()  returns 0x00 (0000ms, 0853ms total)
T19B0 001:098 JLINK_IsHalted()  returns TRUE (0000ms, 0853ms total)
T19B0 001:100 JLINK_WriteMem(0x20000000, 0x0164 Bytes, ...) -- Data:  00 BE 0A E0 0D 78 2D 06 68 40 08 24 40 00 00 D3 ... -- CPU_WriteMem(356 bytes @ 0x20000000)  returns 0x164 (0006ms, 0859ms total)
T19B0 001:106 JLINK_WriteReg(R0, 0x08000000)  returns 0x00 (0000ms, 0859ms total)
T19B0 001:106 JLINK_WriteReg(R1, 0x044AA200)  returns 0x00 (0000ms, 0859ms total)
T19B0 001:106 JLINK_WriteReg(R2, 0x00000001)  returns 0x00 (0000ms, 0859ms total)
T19B0 001:106 JLINK_WriteReg(R3, 0x00000000)  returns 0x00 (0000ms, 0859ms total)
T19B0 001:106 JLINK_WriteReg(R4, 0x00000000)  returns 0x00 (0000ms, 0859ms total)
T19B0 001:106 JLINK_WriteReg(R5, 0x00000000)  returns 0x00 (0000ms, 0859ms total)
T19B0 001:106 JLINK_WriteReg(R6, 0x00000000)  returns 0x00 (0000ms, 0859ms total)
T19B0 001:106 JLINK_WriteReg(R7, 0x00000000)  returns 0x00 (0000ms, 0859ms total)
T19B0 001:106 JLINK_WriteReg(R8, 0x00000000)  returns 0x00 (0000ms, 0859ms total)
T19B0 001:106 JLINK_WriteReg(R9, 0x20000160)  returns 0x00 (0000ms, 0859ms total)
T19B0 001:106 JLINK_WriteReg(R10, 0x00000000)  returns 0x00 (0000ms, 0859ms total)
T19B0 001:106 JLINK_WriteReg(R11, 0x00000000)  returns 0x00 (0000ms, 0859ms total)
T19B0 001:106 JLINK_WriteReg(R12, 0x00000000)  returns 0x00 (0000ms, 0859ms total)
T19B0 001:106 JLINK_WriteReg(R13 (SP), 0x20000800)  returns 0x00 (0000ms, 0859ms total)
T19B0 001:106 JLINK_WriteReg(R14, 0x20000001)  returns 0x00 (0000ms, 0859ms total)
T19B0 001:106 JLINK_WriteReg(R15 (PC), 0x20000038)  returns 0x00 (0000ms, 0859ms total)
T19B0 001:106 JLINK_WriteReg(XPSR, 0x01000000)  returns 0x00 (0000ms, 0859ms total)
T19B0 001:106 JLINK_WriteReg(MSP, 0x20000800)  returns 0x00 (0000ms, 0859ms total)
T19B0 001:106 JLINK_WriteReg(PSP, 0x20000800)  returns 0x00 (0000ms, 0859ms total)
T19B0 001:106 JLINK_WriteReg(CFBP, 0x00000000)  returns 0x00 (0000ms, 0859ms total)
T19B0 001:106 JLINK_SetBPEx(Addr = 0x20000000, Type = 0xFFFFFFF2) -- CPU_ReadMem(2 bytes @ 0x20000000)  returns 0x00000001 (0002ms, 0861ms total)
T19B0 001:108 JLINK_Go() -- CPU_WriteMem(2 bytes @ 0x20000000) -- CPU_WriteMem(4 bytes @ 0xE0002008) -- CPU_WriteMem(4 bytes @ 0xE000200C) -- CPU_WriteMem(4 bytes @ 0xE0002010) -- CPU_WriteMem(4 bytes @ 0xE0002014) -- CPU_WriteMem(4 bytes @ 0xE0002018) -- CPU_WriteMem(4 bytes @ 0xE000201C) -- CPU_WriteMem(4 bytes @ 0xE0001004) (0015ms, 0876ms total)
T19B0 001:123 JLINK_IsHalted() -- CPU_ReadMem(2 bytes @ 0x20000000)  returns TRUE (0005ms, 0881ms total)
T19B0 001:128 JLINK_ReadReg(R15 (PC))  returns 0x20000000 (0000ms, 0876ms total)
T19B0 001:128 JLINK_ClrBPEx(BPHandle = 0x00000001)  returns 0x00 (0000ms, 0876ms total)
T19B0 001:128 JLINK_ReadReg(R0)  returns 0x00000000 (0000ms, 0876ms total)
T19B0 001:128 JLINK_WriteReg(R0, 0x08000000)  returns 0x00 (0000ms, 0876ms total)
T19B0 001:128 JLINK_WriteReg(R1, 0x044AA200)  returns 0x00 (0000ms, 0876ms total)
T19B0 001:128 JLINK_WriteReg(R2, 0x00000001)  returns 0x00 (0000ms, 0876ms total)
T19B0 001:128 JLINK_WriteReg(R3, 0x00000000)  returns 0x00 (0000ms, 0876ms total)
T19B0 001:128 JLINK_WriteReg(R4, 0x00000000)  returns 0x00 (0000ms, 0876ms total)
T19B0 001:128 JLINK_WriteReg(R5, 0x00000000)  returns 0x00 (0000ms, 0876ms total)
T19B0 001:128 JLINK_WriteReg(R6, 0x00000000)  returns 0x00 (0000ms, 0876ms total)
T19B0 001:128 JLINK_WriteReg(R7, 0x00000000)  returns 0x00 (0000ms, 0876ms total)
T19B0 001:128 JLINK_WriteReg(R8, 0x00000000)  returns 0x00 (0000ms, 0876ms total)
T19B0 001:128 JLINK_WriteReg(R9, 0x20000160)  returns 0x00 (0000ms, 0876ms total)
T19B0 001:128 JLINK_WriteReg(R10, 0x00000000)  returns 0x00 (0000ms, 0876ms total)
T19B0 001:128 JLINK_WriteReg(R11, 0x00000000)  returns 0x00 (0001ms, 0877ms total)
T19B0 001:129 JLINK_WriteReg(R12, 0x00000000)  returns 0x00 (0000ms, 0877ms total)
T19B0 001:129 JLINK_WriteReg(R13 (SP), 0x20000800)  returns 0x00 (0000ms, 0877ms total)
T19B0 001:129 JLINK_WriteReg(R14, 0x20000001)  returns 0x00 (0000ms, 0877ms total)
T19B0 001:129 JLINK_WriteReg(R15 (PC), 0x2000007C)  returns 0x00 (0000ms, 0877ms total)
T19B0 001:129 JLINK_WriteReg(XPSR, 0x01000000)  returns 0x00 (0000ms, 0877ms total)
T19B0 001:129 JLINK_WriteReg(MSP, 0x20000800)  returns 0x00 (0000ms, 0877ms total)
T19B0 001:129 JLINK_WriteReg(PSP, 0x20000800)  returns 0x00 (0000ms, 0877ms total)
T19B0 001:129 JLINK_WriteReg(CFBP, 0x00000000)  returns 0x00 (0000ms, 0877ms total)
T19B0 001:129 JLINK_SetBPEx(Addr = 0x20000000, Type = 0xFFFFFFF2)  returns 0x00000002 (0000ms, 0877ms total)
T19B0 001:129 JLINK_Go() (0002ms, 0879ms total)
T19B0 001:131 JLINK_IsHalted()  returns FALSE (0001ms, 0880ms total)
T19B0 001:196 JLINK_IsHalted() -- CPU_ReadMem(2 bytes @ 0x20000000)  returns TRUE (0007ms, 0886ms total)
T19B0 001:203 JLINK_ReadReg(R15 (PC))  returns 0x20000000 (0000ms, 0879ms total)
T19B0 001:203 JLINK_ClrBPEx(BPHandle = 0x00000002)  returns 0x00 (0000ms, 0879ms total)
T19B0 001:203 JLINK_ReadReg(R0)  returns 0x00000000 (0000ms, 0879ms total)
T19B0 001:254 JLINK_WriteReg(R0, 0x00000001)  returns 0x00 (0000ms, 0879ms total)
T19B0 001:254 JLINK_WriteReg(R1, 0x044AA200)  returns 0x00 (0000ms, 0879ms total)
T19B0 001:254 JLINK_WriteReg(R2, 0x00000001)  returns 0x00 (0000ms, 0879ms total)
T19B0 001:254 JLINK_WriteReg(R3, 0x00000000)  returns 0x00 (0000ms, 0879ms total)
T19B0 001:254 JLINK_WriteReg(R4, 0x00000000)  returns 0x00 (0000ms, 0879ms total)
T19B0 001:254 JLINK_WriteReg(R5, 0x00000000)  returns 0x00 (0000ms, 0879ms total)
T19B0 001:254 JLINK_WriteReg(R6, 0x00000000)  returns 0x00 (0000ms, 0879ms total)
T19B0 001:254 JLINK_WriteReg(R7, 0x00000000)  returns 0x00 (0000ms, 0879ms total)
T19B0 001:254 JLINK_WriteReg(R8, 0x00000000)  returns 0x00 (0001ms, 0880ms total)
T19B0 001:255 JLINK_WriteReg(R9, 0x20000160)  returns 0x00 (0000ms, 0880ms total)
T19B0 001:255 JLINK_WriteReg(R10, 0x00000000)  returns 0x00 (0000ms, 0880ms total)
T19B0 001:255 JLINK_WriteReg(R11, 0x00000000)  returns 0x00 (0000ms, 0880ms total)
T19B0 001:255 JLINK_WriteReg(R12, 0x00000000)  returns 0x00 (0000ms, 0880ms total)
T19B0 001:255 JLINK_WriteReg(R13 (SP), 0x20000800)  returns 0x00 (0000ms, 0880ms total)
T19B0 001:255 JLINK_WriteReg(R14, 0x20000001)  returns 0x00 (0000ms, 0880ms total)
T19B0 001:255 JLINK_WriteReg(R15 (PC), 0x2000006A)  returns 0x00 (0000ms, 0880ms total)
T19B0 001:255 JLINK_WriteReg(XPSR, 0x01000000)  returns 0x00 (0000ms, 0880ms total)
T19B0 001:255 JLINK_WriteReg(MSP, 0x20000800)  returns 0x00 (0000ms, 0880ms total)
T19B0 001:255 JLINK_WriteReg(PSP, 0x20000800)  returns 0x00 (0000ms, 0880ms total)
T19B0 001:255 JLINK_WriteReg(CFBP, 0x00000000)  returns 0x00 (0000ms, 0880ms total)
T19B0 001:255 JLINK_SetBPEx(Addr = 0x20000000, Type = 0xFFFFFFF2)  returns 0x00000003 (0000ms, 0880ms total)
T19B0 001:255 JLINK_Go() (0004ms, 0884ms total)
T19B0 001:259 JLINK_IsHalted() -- CPU_ReadMem(2 bytes @ 0x20000000)  returns TRUE (0006ms, 0890ms total)
T19B0 001:265 JLINK_ReadReg(R15 (PC))  returns 0x20000000 (0000ms, 0884ms total)
T19B0 001:265 JLINK_ClrBPEx(BPHandle = 0x00000003)  returns 0x00 (0000ms, 0884ms total)
T19B0 001:265 JLINK_ReadReg(R0)  returns 0x00000000 (0000ms, 0884ms total)
T19B0 001:281 JLINK_WriteMem(0x20000000, 0x0164 Bytes, ...) -- Data:  00 BE 0A E0 0D 78 2D 06 68 40 08 24 40 00 00 D3 ... -- CPU_WriteMem(356 bytes @ 0x20000000)  returns 0x164 (0005ms, 0890ms total)
T19B0 001:286 JLINK_WriteReg(R0, 0x08000000)  returns 0x00 (0000ms, 0890ms total)
T19B0 001:286 JLINK_WriteReg(R1, 0x044AA200)  returns 0x00 (0000ms, 0890ms total)
T19B0 001:286 JLINK_WriteReg(R2, 0x00000002)  returns 0x00 (0000ms, 0890ms total)
T19B0 001:286 JLINK_WriteReg(R3, 0x00000000)  returns 0x00 (0000ms, 0890ms total)
T19B0 001:286 JLINK_WriteReg(R4, 0x00000000)  returns 0x00 (0001ms, 0891ms total)
T19B0 001:287 JLINK_WriteReg(R5, 0x00000000)  returns 0x00 (0000ms, 0891ms total)
T19B0 001:287 JLINK_WriteReg(R6, 0x00000000)  returns 0x00 (0000ms, 0891ms total)
T19B0 001:287 JLINK_WriteReg(R7, 0x00000000)  returns 0x00 (0000ms, 0891ms total)
T19B0 001:287 JLINK_WriteReg(R8, 0x00000000)  returns 0x00 (0000ms, 0891ms total)
T19B0 001:287 JLINK_WriteReg(R9, 0x20000160)  returns 0x00 (0000ms, 0891ms total)
T19B0 001:287 JLINK_WriteReg(R10, 0x00000000)  returns 0x00 (0000ms, 0891ms total)
T19B0 001:287 JLINK_WriteReg(R11, 0x00000000)  returns 0x00 (0000ms, 0891ms total)
T19B0 001:287 JLINK_WriteReg(R12, 0x00000000)  returns 0x00 (0000ms, 0891ms total)
T19B0 001:287 JLINK_WriteReg(R13 (SP), 0x20000800)  returns 0x00 (0000ms, 0891ms total)
T19B0 001:287 JLINK_WriteReg(R14, 0x20000001)  returns 0x00 (0000ms, 0891ms total)
T19B0 001:287 JLINK_WriteReg(R15 (PC), 0x20000038)  returns 0x00 (0000ms, 0891ms total)
T19B0 001:287 JLINK_WriteReg(XPSR, 0x01000000)  returns 0x00 (0000ms, 0891ms total)
T19B0 001:287 JLINK_WriteReg(MSP, 0x20000800)  returns 0x00 (0000ms, 0891ms total)
T19B0 001:287 JLINK_WriteReg(PSP, 0x20000800)  returns 0x00 (0000ms, 0891ms total)
T19B0 001:287 JLINK_WriteReg(CFBP, 0x00000000)  returns 0x00 (0000ms, 0891ms total)
T19B0 001:287 JLINK_SetBPEx(Addr = 0x20000000, Type = 0xFFFFFFF2) -- CPU_ReadMem(2 bytes @ 0x20000000)  returns 0x00000004 (0001ms, 0892ms total)
T19B0 001:288 JLINK_Go() -- CPU_WriteMem(2 bytes @ 0x20000000) (0004ms, 0896ms total)
T19B0 001:292 JLINK_IsHalted() -- CPU_ReadMem(2 bytes @ 0x20000000)  returns TRUE (0007ms, 0903ms total)
T19B0 001:299 JLINK_ReadReg(R15 (PC))  returns 0x20000000 (0000ms, 0896ms total)
T19B0 001:299 JLINK_ClrBPEx(BPHandle = 0x00000004)  returns 0x00 (0000ms, 0896ms total)
T19B0 001:299 JLINK_ReadReg(R0)  returns 0x00000000 (0000ms, 0896ms total)
T19B0 001:299 JLINK_WriteMem(0x20000164, 0x0400 Bytes, ...) -- Data:  68 23 00 20 01 01 00 08 B9 11 00 08 BB 11 00 08 ... -- CPU_WriteMem(1024 bytes @ 0x20000164)  returns 0x400 (0013ms, 0909ms total)
T19B0 001:312 JLINK_WriteReg(R0, 0x08000000)  returns 0x00 (0000ms, 0909ms total)
T19B0 001:312 JLINK_WriteReg(R1, 0x00000400)  returns 0x00 (0000ms, 0909ms total)
T19B0 001:312 JLINK_WriteReg(R2, 0x20000164)  returns 0x00 (0000ms, 0909ms total)
T19B0 001:312 JLINK_WriteReg(R3, 0x00000000)  returns 0x00 (0000ms, 0909ms total)
T19B0 001:312 JLINK_WriteReg(R4, 0x00000000)  returns 0x00 (0000ms, 0909ms total)
T19B0 001:312 JLINK_WriteReg(R5, 0x00000000)  returns 0x00 (0000ms, 0909ms total)
T19B0 001:312 JLINK_WriteReg(R6, 0x00000000)  returns 0x00 (0000ms, 0909ms total)
T19B0 001:312 JLINK_WriteReg(R7, 0x00000000)  returns 0x00 (0000ms, 0909ms total)
T19B0 001:312 JLINK_WriteReg(R8, 0x00000000)  returns 0x00 (0000ms, 0909ms total)
T19B0 001:312 JLINK_WriteReg(R9, 0x20000160)  returns 0x00 (0000ms, 0909ms total)
T19B0 001:312 JLINK_WriteReg(R10, 0x00000000)  returns 0x00 (0000ms, 0909ms total)
T19B0 001:312 JLINK_WriteReg(R11, 0x00000000)  returns 0x00 (0000ms, 0909ms total)
T19B0 001:312 JLINK_WriteReg(R12, 0x00000000)  returns 0x00 (0000ms, 0909ms total)
T19B0 001:312 JLINK_WriteReg(R13 (SP), 0x20000800)  returns 0x00 (0000ms, 0909ms total)
T19B0 001:312 JLINK_WriteReg(R14, 0x20000001)  returns 0x00 (0000ms, 0909ms total)
T19B0 001:312 JLINK_WriteReg(R15 (PC), 0x200000F4)  returns 0x00 (0000ms, 0909ms total)
T19B0 001:312 JLINK_WriteReg(XPSR, 0x01000000)  returns 0x00 (0000ms, 0909ms total)
T19B0 001:312 JLINK_WriteReg(MSP, 0x20000800)  returns 0x00 (0000ms, 0909ms total)
T19B0 001:312 JLINK_WriteReg(PSP, 0x20000800)  returns 0x00 (0000ms, 0909ms total)
T19B0 001:312 JLINK_WriteReg(CFBP, 0x00000000)  returns 0x00 (0000ms, 0909ms total)
T19B0 001:312 JLINK_SetBPEx(Addr = 0x20000000, Type = 0xFFFFFFF2)  returns 0x00000005 (0000ms, 0909ms total)
T19B0 001:312 JLINK_Go() (0003ms, 0912ms total)
T19B0 001:315 JLINK_IsHalted()  returns FALSE (0002ms, 0914ms total)
T19B0 001:357 JLINK_IsHalted() -- CPU_ReadMem(2 bytes @ 0x20000000)  returns TRUE (0005ms, 0917ms total)
T19B0 001:362 JLINK_ReadReg(R15 (PC))  returns 0x20000000 (0000ms, 0912ms total)
T19B0 001:362 JLINK_ClrBPEx(BPHandle = 0x00000005)  returns 0x00 (0000ms, 0912ms total)
T19B0 001:362 JLINK_ReadReg(R0)  returns 0x00000000 (0000ms, 0912ms total)
T19B0 001:363 JLINK_WriteMem(0x20000164, 0x0400 Bytes, ...) -- Data:  88 10 48 60 08 46 00 68 40 F0 80 70 08 60 00 BF ... -- CPU_WriteMem(1024 bytes @ 0x20000164)  returns 0x400 (0012ms, 0924ms total)
T19B0 001:375 JLINK_WriteReg(R0, 0x08000400)  returns 0x00 (0000ms, 0924ms total)
T19B0 001:375 JLINK_WriteReg(R1, 0x00000400)  returns 0x00 (0000ms, 0924ms total)
T19B0 001:375 JLINK_WriteReg(R2, 0x20000164)  returns 0x00 (0000ms, 0924ms total)
T19B0 001:375 JLINK_WriteReg(R3, 0x00000000)  returns 0x00 (0000ms, 0924ms total)
T19B0 001:375 JLINK_WriteReg(R4, 0x00000000)  returns 0x00 (0000ms, 0924ms total)
T19B0 001:375 JLINK_WriteReg(R5, 0x00000000)  returns 0x00 (0000ms, 0924ms total)
T19B0 001:375 JLINK_WriteReg(R6, 0x00000000)  returns 0x00 (0000ms, 0924ms total)
T19B0 001:375 JLINK_WriteReg(R7, 0x00000000)  returns 0x00 (0000ms, 0924ms total)
T19B0 001:376 JLINK_WriteReg(R8, 0x00000000)  returns 0x00 (0000ms, 0925ms total)
T19B0 001:376 JLINK_WriteReg(R9, 0x20000160)  returns 0x00 (0000ms, 0925ms total)
T19B0 001:376 JLINK_WriteReg(R10, 0x00000000)  returns 0x00 (0000ms, 0925ms total)
T19B0 001:376 JLINK_WriteReg(R11, 0x00000000)  returns 0x00 (0000ms, 0925ms total)
T19B0 001:376 JLINK_WriteReg(R12, 0x00000000)  returns 0x00 (0000ms, 0925ms total)
T19B0 001:376 JLINK_WriteReg(R13 (SP), 0x20000800)  returns 0x00 (0000ms, 0925ms total)
T19B0 001:376 JLINK_WriteReg(R14, 0x20000001)  returns 0x00 (0000ms, 0925ms total)
T19B0 001:376 JLINK_WriteReg(R15 (PC), 0x200000F4)  returns 0x00 (0000ms, 0925ms total)
T19B0 001:376 JLINK_WriteReg(XPSR, 0x01000000)  returns 0x00 (0000ms, 0925ms total)
T19B0 001:376 JLINK_WriteReg(MSP, 0x20000800)  returns 0x00 (0000ms, 0925ms total)
T19B0 001:376 JLINK_WriteReg(PSP, 0x20000800)  returns 0x00 (0000ms, 0925ms total)
T19B0 001:376 JLINK_WriteReg(CFBP, 0x00000000)  returns 0x00 (0000ms, 0925ms total)
T19B0 001:376 JLINK_SetBPEx(Addr = 0x20000000, Type = 0xFFFFFFF2)  returns 0x00000006 (0000ms, 0925ms total)
T19B0 001:376 JLINK_Go() (0003ms, 0928ms total)
T19B0 001:379 JLINK_IsHalted()  returns FALSE (0001ms, 0929ms total)
T19B0 001:405 JLINK_IsHalted()  returns FALSE (0001ms, 0929ms total)
T19B0 001:407 JLINK_IsHalted()  returns FALSE (0001ms, 0929ms total)
T19B0 001:409 JLINK_IsHalted() -- CPU_ReadMem(2 bytes @ 0x20000000)  returns TRUE (0005ms, 0933ms total)
T19B0 001:414 JLINK_ReadReg(R15 (PC))  returns 0x20000000 (0000ms, 0928ms total)
T19B0 001:414 JLINK_ClrBPEx(BPHandle = 0x00000006)  returns 0x00 (0000ms, 0928ms total)
T19B0 001:414 JLINK_ReadReg(R0)  returns 0x00000000 (0000ms, 0928ms total)
T19B0 001:415 JLINK_WriteMem(0x20000164, 0x0400 Bytes, ...) -- Data:  0E DC 60 1E 64 49 08 5C 81 00 63 48 00 5D 01 EB ... -- CPU_WriteMem(1024 bytes @ 0x20000164)  returns 0x400 (0013ms, 0941ms total)
T19B0 001:428 JLINK_WriteReg(R0, 0x08000800)  returns 0x00 (0000ms, 0941ms total)
T19B0 001:428 JLINK_WriteReg(R1, 0x00000400)  returns 0x00 (0000ms, 0941ms total)
T19B0 001:428 JLINK_WriteReg(R2, 0x20000164)  returns 0x00 (0000ms, 0941ms total)
T19B0 001:428 JLINK_WriteReg(R3, 0x00000000)  returns 0x00 (0000ms, 0941ms total)
T19B0 001:428 JLINK_WriteReg(R4, 0x00000000)  returns 0x00 (0000ms, 0941ms total)
T19B0 001:428 JLINK_WriteReg(R5, 0x00000000)  returns 0x00 (0000ms, 0941ms total)
T19B0 001:428 JLINK_WriteReg(R6, 0x00000000)  returns 0x00 (0000ms, 0941ms total)
T19B0 001:428 JLINK_WriteReg(R7, 0x00000000)  returns 0x00 (0000ms, 0941ms total)
T19B0 001:428 JLINK_WriteReg(R8, 0x00000000)  returns 0x00 (0000ms, 0941ms total)
T19B0 001:428 JLINK_WriteReg(R9, 0x20000160)  returns 0x00 (0000ms, 0941ms total)
T19B0 001:428 JLINK_WriteReg(R10, 0x00000000)  returns 0x00 (0001ms, 0942ms total)
T19B0 001:429 JLINK_WriteReg(R11, 0x00000000)  returns 0x00 (0000ms, 0942ms total)
T19B0 001:429 JLINK_WriteReg(R12, 0x00000000)  returns 0x00 (0000ms, 0942ms total)
T19B0 001:429 JLINK_WriteReg(R13 (SP), 0x20000800)  returns 0x00 (0000ms, 0942ms total)
T19B0 001:429 JLINK_WriteReg(R14, 0x20000001)  returns 0x00 (0000ms, 0942ms total)
T19B0 001:429 JLINK_WriteReg(R15 (PC), 0x200000F4)  returns 0x00 (0000ms, 0942ms total)
T19B0 001:429 JLINK_WriteReg(XPSR, 0x01000000)  returns 0x00 (0000ms, 0942ms total)
T19B0 001:429 JLINK_WriteReg(MSP, 0x20000800)  returns 0x00 (0000ms, 0942ms total)
T19B0 001:429 JLINK_WriteReg(PSP, 0x20000800)  returns 0x00 (0000ms, 0942ms total)
T19B0 001:429 JLINK_WriteReg(CFBP, 0x00000000)  returns 0x00 (0000ms, 0942ms total)
T19B0 001:429 JLINK_SetBPEx(Addr = 0x20000000, Type = 0xFFFFFFF2)  returns 0x00000007 (0000ms, 0942ms total)
T19B0 001:429 JLINK_Go() (0003ms, 0945ms total)
T19B0 001:432 JLINK_IsHalted()  returns FALSE (0003ms, 0948ms total)
T19B0 001:438 JLINK_IsHalted()  returns FALSE (0001ms, 0946ms total)
T19B0 001:440 JLINK_IsHalted()  returns FALSE (0001ms, 0946ms total)
T19B0 001:442 JLINK_IsHalted()  returns FALSE (0001ms, 0946ms total)
T19B0 001:448 JLINK_IsHalted()  returns FALSE (0001ms, 0946ms total)
T19B0 001:450 JLINK_IsHalted()  returns FALSE (0001ms, 0946ms total)
T19B0 001:452 JLINK_IsHalted()  returns FALSE (0001ms, 0946ms total)
T19B0 001:454 JLINK_IsHalted()  returns FALSE (0001ms, 0946ms total)
T19B0 001:456 JLINK_IsHalted()  returns FALSE (0001ms, 0946ms total)
T19B0 001:458 JLINK_IsHalted()  returns FALSE (0000ms, 0945ms total)
T19B0 001:462 JLINK_IsHalted() -- CPU_ReadMem(2 bytes @ 0x20000000)  returns TRUE (0006ms, 0951ms total)
T19B0 001:468 JLINK_ReadReg(R15 (PC))  returns 0x20000000 (0000ms, 0945ms total)
T19B0 001:468 JLINK_ClrBPEx(BPHandle = 0x00000007)  returns 0x00 (0000ms, 0945ms total)
T19B0 001:468 JLINK_ReadReg(R0)  returns 0x00000000 (0000ms, 0945ms total)
T19B0 001:469 JLINK_WriteMem(0x20000164, 0x0400 Bytes, ...) -- Data:  1E 02 00 20 28 02 00 20 A0 01 00 20 08 B5 1D 20 ... -- CPU_WriteMem(1024 bytes @ 0x20000164)  returns 0x400 (0012ms, 0957ms total)
T19B0 001:482 JLINK_WriteReg(R0, 0x08000C00)  returns 0x00 (0000ms, 0957ms total)
T19B0 001:482 JLINK_WriteReg(R1, 0x00000400)  returns 0x00 (0000ms, 0957ms total)
T19B0 001:482 JLINK_WriteReg(R2, 0x20000164)  returns 0x00 (0000ms, 0957ms total)
T19B0 001:482 JLINK_WriteReg(R3, 0x00000000)  returns 0x00 (0000ms, 0957ms total)
T19B0 001:482 JLINK_WriteReg(R4, 0x00000000)  returns 0x00 (0000ms, 0957ms total)
T19B0 001:482 JLINK_WriteReg(R5, 0x00000000)  returns 0x00 (0000ms, 0957ms total)
T19B0 001:482 JLINK_WriteReg(R6, 0x00000000)  returns 0x00 (0000ms, 0957ms total)
T19B0 001:482 JLINK_WriteReg(R7, 0x00000000)  returns 0x00 (0000ms, 0957ms total)
T19B0 001:482 JLINK_WriteReg(R8, 0x00000000)  returns 0x00 (0000ms, 0957ms total)
T19B0 001:482 JLINK_WriteReg(R9, 0x20000160)  returns 0x00 (0000ms, 0957ms total)
T19B0 001:482 JLINK_WriteReg(R10, 0x00000000)  returns 0x00 (0000ms, 0957ms total)
T19B0 001:482 JLINK_WriteReg(R11, 0x00000000)  returns 0x00 (0000ms, 0957ms total)
T19B0 001:482 JLINK_WriteReg(R12, 0x00000000)  returns 0x00 (0000ms, 0957ms total)
T19B0 001:482 JLINK_WriteReg(R13 (SP), 0x20000800)  returns 0x00 (0000ms, 0957ms total)
T19B0 001:482 JLINK_WriteReg(R14, 0x20000001)  returns 0x00 (0000ms, 0957ms total)
T19B0 001:482 JLINK_WriteReg(R15 (PC), 0x200000F4)  returns 0x00 (0000ms, 0957ms total)
T19B0 001:482 JLINK_WriteReg(XPSR, 0x01000000)  returns 0x00 (0000ms, 0957ms total)
T19B0 001:482 JLINK_WriteReg(MSP, 0x20000800)  returns 0x00 (0000ms, 0957ms total)
T19B0 001:482 JLINK_WriteReg(PSP, 0x20000800)  returns 0x00 (0000ms, 0957ms total)
T19B0 001:482 JLINK_WriteReg(CFBP, 0x00000000)  returns 0x00 (0000ms, 0957ms total)
T19B0 001:482 JLINK_SetBPEx(Addr = 0x20000000, Type = 0xFFFFFFF2)  returns 0x00000008 (0000ms, 0957ms total)
T19B0 001:482 JLINK_Go() (0004ms, 0961ms total)
T19B0 001:486 JLINK_IsHalted()  returns FALSE (0001ms, 0962ms total)
T19B0 001:490 JLINK_IsHalted()  returns FALSE (0001ms, 0962ms total)
T19B0 001:511 JLINK_IsHalted()  returns FALSE (0001ms, 0962ms total)
T19B0 001:515 JLINK_IsHalted()  returns FALSE (0001ms, 0962ms total)
T19B0 001:517 JLINK_IsHalted() -- CPU_ReadMem(2 bytes @ 0x20000000)  returns TRUE (0005ms, 0966ms total)
T19B0 001:522 JLINK_ReadReg(R15 (PC))  returns 0x20000000 (0000ms, 0961ms total)
T19B0 001:522 JLINK_ClrBPEx(BPHandle = 0x00000008)  returns 0x00 (0000ms, 0961ms total)
T19B0 001:522 JLINK_ReadReg(R0)  returns 0x00000000 (0000ms, 0961ms total)
T19B0 001:523 JLINK_WriteMem(0x20000164, 0x0400 Bytes, ...) -- Data:  39 FA 40 20 AD F8 04 00 01 A9 67 48 04 F0 32 FA ... -- CPU_WriteMem(1024 bytes @ 0x20000164)  returns 0x400 (0012ms, 0973ms total)
T19B0 001:535 JLINK_WriteReg(R0, 0x08001000)  returns 0x00 (0000ms, 0973ms total)
T19B0 001:535 JLINK_WriteReg(R1, 0x00000400)  returns 0x00 (0000ms, 0973ms total)
T19B0 001:535 JLINK_WriteReg(R2, 0x20000164)  returns 0x00 (0000ms, 0973ms total)
T19B0 001:535 JLINK_WriteReg(R3, 0x00000000)  returns 0x00 (0000ms, 0973ms total)
T19B0 001:535 JLINK_WriteReg(R4, 0x00000000)  returns 0x00 (0000ms, 0973ms total)
T19B0 001:535 JLINK_WriteReg(R5, 0x00000000)  returns 0x00 (0000ms, 0973ms total)
T19B0 001:535 JLINK_WriteReg(R6, 0x00000000)  returns 0x00 (0000ms, 0973ms total)
T19B0 001:535 JLINK_WriteReg(R7, 0x00000000)  returns 0x00 (0000ms, 0973ms total)
T19B0 001:535 JLINK_WriteReg(R8, 0x00000000)  returns 0x00 (0000ms, 0973ms total)
T19B0 001:535 JLINK_WriteReg(R9, 0x20000160)  returns 0x00 (0000ms, 0973ms total)
T19B0 001:535 JLINK_WriteReg(R10, 0x00000000)  returns 0x00 (0000ms, 0973ms total)
T19B0 001:535 JLINK_WriteReg(R11, 0x00000000)  returns 0x00 (0000ms, 0973ms total)
T19B0 001:535 JLINK_WriteReg(R12, 0x00000000)  returns 0x00 (0000ms, 0973ms total)
T19B0 001:535 JLINK_WriteReg(R13 (SP), 0x20000800)  returns 0x00 (0000ms, 0973ms total)
T19B0 001:535 JLINK_WriteReg(R14, 0x20000001)  returns 0x00 (0000ms, 0973ms total)
T19B0 001:535 JLINK_WriteReg(R15 (PC), 0x200000F4)  returns 0x00 (0000ms, 0973ms total)
T19B0 001:535 JLINK_WriteReg(XPSR, 0x01000000)  returns 0x00 (0000ms, 0973ms total)
T19B0 001:535 JLINK_WriteReg(MSP, 0x20000800)  returns 0x00 (0000ms, 0973ms total)
T19B0 001:535 JLINK_WriteReg(PSP, 0x20000800)  returns 0x00 (0000ms, 0973ms total)
T19B0 001:536 JLINK_WriteReg(CFBP, 0x00000000)  returns 0x00 (0000ms, 0973ms total)
T19B0 001:536 JLINK_SetBPEx(Addr = 0x20000000, Type = 0xFFFFFFF2)  returns 0x00000009 (0000ms, 0973ms total)
T19B0 001:536 JLINK_Go() (0002ms, 0975ms total)
T19B0 001:538 JLINK_IsHalted()  returns FALSE (0002ms, 0977ms total)
T19B0 001:544 JLINK_IsHalted()  returns FALSE (0001ms, 0976ms total)
T19B0 001:546 JLINK_IsHalted()  returns FALSE (0001ms, 0976ms total)
T19B0 001:548 JLINK_IsHalted()  returns FALSE (0001ms, 0976ms total)
T19B0 001:550 JLINK_IsHalted()  returns FALSE (0001ms, 0976ms total)
T19B0 001:552 JLINK_IsHalted()  returns FALSE (0001ms, 0976ms total)
T19B0 001:556 JLINK_IsHalted()  returns FALSE (0001ms, 0976ms total)
T19B0 001:558 JLINK_IsHalted()  returns FALSE (0001ms, 0976ms total)
T19B0 001:560 JLINK_IsHalted()  returns FALSE (0001ms, 0976ms total)
T19B0 001:562 JLINK_IsHalted()  returns FALSE (0001ms, 0976ms total)
T19B0 001:564 JLINK_IsHalted()  returns FALSE (0001ms, 0976ms total)
T19B0 001:566 JLINK_IsHalted()  returns FALSE (0001ms, 0976ms total)
T19B0 001:568 JLINK_IsHalted()  returns FALSE (0000ms, 0975ms total)
T19B0 001:575 JLINK_IsHalted() -- CPU_ReadMem(2 bytes @ 0x20000000)  returns TRUE (0006ms, 0981ms total)
T19B0 001:581 JLINK_ReadReg(R15 (PC))  returns 0x20000000 (0000ms, 0975ms total)
T19B0 001:581 JLINK_ClrBPEx(BPHandle = 0x00000009)  returns 0x00 (0000ms, 0975ms total)
T19B0 001:581 JLINK_ReadReg(R0)  returns 0x00000000 (0000ms, 0975ms total)
T19B0 001:584 JLINK_WriteMem(0x20000164, 0x0400 Bytes, ...) -- Data:  2D E9 F0 47 86 B0 81 46 49 46 01 20 FF F7 61 FF ... -- CPU_WriteMem(1024 bytes @ 0x20000164)  returns 0x400 (0013ms, 0988ms total)
T19B0 001:597 JLINK_WriteReg(R0, 0x08001400)  returns 0x00 (0000ms, 0988ms total)
T19B0 001:597 JLINK_WriteReg(R1, 0x00000400)  returns 0x00 (0000ms, 0988ms total)
T19B0 001:597 JLINK_WriteReg(R2, 0x20000164)  returns 0x00 (0000ms, 0988ms total)
T19B0 001:597 JLINK_WriteReg(R3, 0x00000000)  returns 0x00 (0000ms, 0988ms total)
T19B0 001:597 JLINK_WriteReg(R4, 0x00000000)  returns 0x00 (0000ms, 0988ms total)
T19B0 001:597 JLINK_WriteReg(R5, 0x00000000)  returns 0x00 (0000ms, 0988ms total)
T19B0 001:597 JLINK_WriteReg(R6, 0x00000000)  returns 0x00 (0000ms, 0988ms total)
T19B0 001:597 JLINK_WriteReg(R7, 0x00000000)  returns 0x00 (0000ms, 0988ms total)
T19B0 001:597 JLINK_WriteReg(R8, 0x00000000)  returns 0x00 (0000ms, 0988ms total)
T19B0 001:597 JLINK_WriteReg(R9, 0x20000160)  returns 0x00 (0000ms, 0988ms total)
T19B0 001:597 JLINK_WriteReg(R10, 0x00000000)  returns 0x00 (0000ms, 0988ms total)
T19B0 001:597 JLINK_WriteReg(R11, 0x00000000)  returns 0x00 (0000ms, 0988ms total)
T19B0 001:597 JLINK_WriteReg(R12, 0x00000000)  returns 0x00 (0000ms, 0988ms total)
T19B0 001:597 JLINK_WriteReg(R13 (SP), 0x20000800)  returns 0x00 (0000ms, 0988ms total)
T19B0 001:597 JLINK_WriteReg(R14, 0x20000001)  returns 0x00 (0000ms, 0988ms total)
T19B0 001:597 JLINK_WriteReg(R15 (PC), 0x200000F4)  returns 0x00 (0001ms, 0989ms total)
T19B0 001:598 JLINK_WriteReg(XPSR, 0x01000000)  returns 0x00 (0000ms, 0989ms total)
T19B0 001:598 JLINK_WriteReg(MSP, 0x20000800)  returns 0x00 (0000ms, 0989ms total)
T19B0 001:598 JLINK_WriteReg(PSP, 0x20000800)  returns 0x00 (0000ms, 0989ms total)
T19B0 001:598 JLINK_WriteReg(CFBP, 0x00000000)  returns 0x00 (0000ms, 0989ms total)
T19B0 001:598 JLINK_SetBPEx(Addr = 0x20000000, Type = 0xFFFFFFF2)  returns 0x0000000A (0000ms, 0989ms total)
T19B0 001:598 JLINK_Go() (0002ms, 0991ms total)
T19B0 001:600 JLINK_IsHalted()  returns FALSE (0001ms, 0992ms total)
T19B0 001:630 JLINK_IsHalted()  returns FALSE (0001ms, 0992ms total)
T19B0 001:632 JLINK_IsHalted() -- CPU_ReadMem(2 bytes @ 0x20000000)  returns TRUE (0006ms, 0997ms total)
T19B0 001:638 JLINK_ReadReg(R15 (PC))  returns 0x20000000 (0000ms, 0991ms total)
T19B0 001:638 JLINK_ClrBPEx(BPHandle = 0x0000000A)  returns 0x00 (0000ms, 0991ms total)
T19B0 001:638 JLINK_ReadReg(R0)  returns 0x00000000 (0000ms, 0991ms total)
T19B0 001:639 JLINK_WriteMem(0x20000164, 0x0400 Bytes, ...) -- Data:  D2 01 00 20 D4 01 00 20 D6 01 00 20 D7 01 00 20 ... -- CPU_WriteMem(1024 bytes @ 0x20000164)  returns 0x400 (0013ms, 1004ms total)
T19B0 001:652 JLINK_WriteReg(R0, 0x08001800)  returns 0x00 (0000ms, 1004ms total)
T19B0 001:652 JLINK_WriteReg(R1, 0x00000400)  returns 0x00 (0000ms, 1004ms total)
T19B0 001:652 JLINK_WriteReg(R2, 0x20000164)  returns 0x00 (0000ms, 1004ms total)
T19B0 001:652 JLINK_WriteReg(R3, 0x00000000)  returns 0x00 (0000ms, 1004ms total)
T19B0 001:652 JLINK_WriteReg(R4, 0x00000000)  returns 0x00 (0000ms, 1004ms total)
T19B0 001:652 JLINK_WriteReg(R5, 0x00000000)  returns 0x00 (0000ms, 1004ms total)
T19B0 001:652 JLINK_WriteReg(R6, 0x00000000)  returns 0x00 (0000ms, 1004ms total)
T19B0 001:652 JLINK_WriteReg(R7, 0x00000000)  returns 0x00 (0000ms, 1004ms total)
T19B0 001:652 JLINK_WriteReg(R8, 0x00000000)  returns 0x00 (0000ms, 1004ms total)
T19B0 001:652 JLINK_WriteReg(R9, 0x20000160)  returns 0x00 (0001ms, 1005ms total)
T19B0 001:653 JLINK_WriteReg(R10, 0x00000000)  returns 0x00 (0000ms, 1005ms total)
T19B0 001:653 JLINK_WriteReg(R11, 0x00000000)  returns 0x00 (0000ms, 1005ms total)
T19B0 001:653 JLINK_WriteReg(R12, 0x00000000)  returns 0x00 (0000ms, 1005ms total)
T19B0 001:653 JLINK_WriteReg(R13 (SP), 0x20000800)  returns 0x00 (0000ms, 1005ms total)
T19B0 001:653 JLINK_WriteReg(R14, 0x20000001)  returns 0x00 (0000ms, 1005ms total)
T19B0 001:653 JLINK_WriteReg(R15 (PC), 0x200000F4)  returns 0x00 (0000ms, 1005ms total)
T19B0 001:653 JLINK_WriteReg(XPSR, 0x01000000)  returns 0x00 (0000ms, 1005ms total)
T19B0 001:653 JLINK_WriteReg(MSP, 0x20000800)  returns 0x00 (0000ms, 1005ms total)
T19B0 001:653 JLINK_WriteReg(PSP, 0x20000800)  returns 0x00 (0000ms, 1005ms total)
T19B0 001:653 JLINK_WriteReg(CFBP, 0x00000000)  returns 0x00 (0000ms, 1005ms total)
T19B0 001:653 JLINK_SetBPEx(Addr = 0x20000000, Type = 0xFFFFFFF2)  returns 0x0000000B (0000ms, 1005ms total)
T19B0 001:653 JLINK_Go() (0003ms, 1008ms total)
T19B0 001:656 JLINK_IsHalted()  returns FALSE (0001ms, 1009ms total)
T19B0 001:663 JLINK_IsHalted()  returns FALSE (0001ms, 1009ms total)
T19B0 001:665 JLINK_IsHalted()  returns FALSE (0001ms, 1009ms total)
T19B0 001:667 JLINK_IsHalted()  returns FALSE (0001ms, 1009ms total)
T19B0 001:669 JLINK_IsHalted()  returns FALSE (0002ms, 1010ms total)
T19B0 001:672 JLINK_IsHalted()  returns FALSE (0001ms, 1009ms total)
T19B0 001:674 JLINK_IsHalted()  returns FALSE (0001ms, 1009ms total)
T19B0 001:676 JLINK_IsHalted()  returns FALSE (0001ms, 1009ms total)
T19B0 001:681 JLINK_IsHalted()  returns FALSE (0001ms, 1009ms total)
T19B0 001:683 JLINK_IsHalted()  returns FALSE (0001ms, 1009ms total)
T19B0 001:686 JLINK_IsHalted()  returns FALSE (0001ms, 1009ms total)
T19B0 001:688 JLINK_IsHalted() -- CPU_ReadMem(2 bytes @ 0x20000000)  returns TRUE (0005ms, 1013ms total)
T19B0 001:693 JLINK_ReadReg(R15 (PC))  returns 0x20000000 (0000ms, 1008ms total)
T19B0 001:693 JLINK_ClrBPEx(BPHandle = 0x0000000B)  returns 0x00 (0000ms, 1008ms total)
T19B0 001:693 JLINK_ReadReg(R0)  returns 0x00000000 (0000ms, 1008ms total)
T19B0 001:693 JLINK_WriteMem(0x20000164, 0x0400 Bytes, ...) -- Data:  06 E0 0C 49 A0 1C 08 5C 0E 49 08 55 60 1C C4 B2 ... -- CPU_WriteMem(1024 bytes @ 0x20000164)  returns 0x400 (0013ms, 1021ms total)
T19B0 001:706 JLINK_WriteReg(R0, 0x08001C00)  returns 0x00 (0000ms, 1021ms total)
T19B0 001:706 JLINK_WriteReg(R1, 0x00000400)  returns 0x00 (0000ms, 1021ms total)
T19B0 001:706 JLINK_WriteReg(R2, 0x20000164)  returns 0x00 (0000ms, 1021ms total)
T19B0 001:706 JLINK_WriteReg(R3, 0x00000000)  returns 0x00 (0000ms, 1021ms total)
T19B0 001:706 JLINK_WriteReg(R4, 0x00000000)  returns 0x00 (0000ms, 1021ms total)
T19B0 001:706 JLINK_WriteReg(R5, 0x00000000)  returns 0x00 (0000ms, 1021ms total)
T19B0 001:706 JLINK_WriteReg(R6, 0x00000000)  returns 0x00 (0000ms, 1021ms total)
T19B0 001:706 JLINK_WriteReg(R7, 0x00000000)  returns 0x00 (0000ms, 1021ms total)
T19B0 001:706 JLINK_WriteReg(R8, 0x00000000)  returns 0x00 (0000ms, 1021ms total)
T19B0 001:706 JLINK_WriteReg(R9, 0x20000160)  returns 0x00 (0000ms, 1021ms total)
T19B0 001:706 JLINK_WriteReg(R10, 0x00000000)  returns 0x00 (0000ms, 1021ms total)
T19B0 001:706 JLINK_WriteReg(R11, 0x00000000)  returns 0x00 (0000ms, 1021ms total)
T19B0 001:706 JLINK_WriteReg(R12, 0x00000000)  returns 0x00 (0001ms, 1022ms total)
T19B0 001:707 JLINK_WriteReg(R13 (SP), 0x20000800)  returns 0x00 (0000ms, 1022ms total)
T19B0 001:707 JLINK_WriteReg(R14, 0x20000001)  returns 0x00 (0000ms, 1022ms total)
T19B0 001:707 JLINK_WriteReg(R15 (PC), 0x200000F4)  returns 0x00 (0000ms, 1022ms total)
T19B0 001:707 JLINK_WriteReg(XPSR, 0x01000000)  returns 0x00 (0000ms, 1022ms total)
T19B0 001:707 JLINK_WriteReg(MSP, 0x20000800)  returns 0x00 (0000ms, 1022ms total)
T19B0 001:707 JLINK_WriteReg(PSP, 0x20000800)  returns 0x00 (0000ms, 1022ms total)
T19B0 001:707 JLINK_WriteReg(CFBP, 0x00000000)  returns 0x00 (0000ms, 1022ms total)
T19B0 001:707 JLINK_SetBPEx(Addr = 0x20000000, Type = 0xFFFFFFF2)  returns 0x0000000C (0000ms, 1022ms total)
T19B0 001:707 JLINK_Go() (0002ms, 1024ms total)
T19B0 001:709 JLINK_IsHalted()  returns FALSE (0001ms, 1025ms total)
T19B0 001:744 JLINK_IsHalted() -- CPU_ReadMem(2 bytes @ 0x20000000)  returns TRUE (0006ms, 1030ms total)
T19B0 001:750 JLINK_ReadReg(R15 (PC))  returns 0x20000000 (0000ms, 1024ms total)
T19B0 001:750 JLINK_ClrBPEx(BPHandle = 0x0000000C)  returns 0x00 (0000ms, 1024ms total)
T19B0 001:750 JLINK_ReadReg(R0)  returns 0x00000000 (0000ms, 1024ms total)
T19B0 001:751 JLINK_WriteMem(0x20000164, 0x0400 Bytes, ...) -- Data:  04 2C F0 DB 0C 24 04 E0 00 20 0E 49 08 55 60 1C ... -- CPU_WriteMem(1024 bytes @ 0x20000164)  returns 0x400 (0013ms, 1038ms total)
T19B0 001:764 JLINK_WriteReg(R0, 0x08002000)  returns 0x00 (0000ms, 1038ms total)
T19B0 001:764 JLINK_WriteReg(R1, 0x00000400)  returns 0x00 (0000ms, 1038ms total)
T19B0 001:764 JLINK_WriteReg(R2, 0x20000164)  returns 0x00 (0000ms, 1038ms total)
T19B0 001:764 JLINK_WriteReg(R3, 0x00000000)  returns 0x00 (0000ms, 1038ms total)
T19B0 001:764 JLINK_WriteReg(R4, 0x00000000)  returns 0x00 (0000ms, 1038ms total)
T19B0 001:764 JLINK_WriteReg(R5, 0x00000000)  returns 0x00 (0000ms, 1038ms total)
T19B0 001:764 JLINK_WriteReg(R6, 0x00000000)  returns 0x00 (0000ms, 1038ms total)
T19B0 001:764 JLINK_WriteReg(R7, 0x00000000)  returns 0x00 (0000ms, 1038ms total)
T19B0 001:764 JLINK_WriteReg(R8, 0x00000000)  returns 0x00 (0001ms, 1039ms total)
T19B0 001:765 JLINK_WriteReg(R9, 0x20000160)  returns 0x00 (0000ms, 1039ms total)
T19B0 001:765 JLINK_WriteReg(R10, 0x00000000)  returns 0x00 (0000ms, 1039ms total)
T19B0 001:765 JLINK_WriteReg(R11, 0x00000000)  returns 0x00 (0000ms, 1039ms total)
T19B0 001:765 JLINK_WriteReg(R12, 0x00000000)  returns 0x00 (0000ms, 1039ms total)
T19B0 001:765 JLINK_WriteReg(R13 (SP), 0x20000800)  returns 0x00 (0000ms, 1039ms total)
T19B0 001:765 JLINK_WriteReg(R14, 0x20000001)  returns 0x00 (0000ms, 1039ms total)
T19B0 001:765 JLINK_WriteReg(R15 (PC), 0x200000F4)  returns 0x00 (0000ms, 1039ms total)
T19B0 001:765 JLINK_WriteReg(XPSR, 0x01000000)  returns 0x00 (0000ms, 1039ms total)
T19B0 001:765 JLINK_WriteReg(MSP, 0x20000800)  returns 0x00 (0000ms, 1039ms total)
T19B0 001:765 JLINK_WriteReg(PSP, 0x20000800)  returns 0x00 (0000ms, 1039ms total)
T19B0 001:765 JLINK_WriteReg(CFBP, 0x00000000)  returns 0x00 (0000ms, 1039ms total)
T19B0 001:765 JLINK_SetBPEx(Addr = 0x20000000, Type = 0xFFFFFFF2)  returns 0x0000000D (0000ms, 1039ms total)
T19B0 001:765 JLINK_Go() (0003ms, 1042ms total)
T19B0 001:768 JLINK_IsHalted()  returns FALSE (0002ms, 1044ms total)
T19B0 001:786 JLINK_IsHalted()  returns FALSE (0001ms, 1043ms total)
T19B0 001:788 JLINK_IsHalted()  returns FALSE (0001ms, 1043ms total)
T19B0 001:790 JLINK_IsHalted()  returns FALSE (0001ms, 1043ms total)
T19B0 001:792 JLINK_IsHalted()  returns FALSE (0001ms, 1043ms total)
T19B0 001:794 JLINK_IsHalted()  returns FALSE (0001ms, 1043ms total)
T19B0 001:800 JLINK_IsHalted() -- CPU_ReadMem(2 bytes @ 0x20000000)  returns TRUE (0005ms, 1047ms total)
T19B0 001:805 JLINK_ReadReg(R15 (PC))  returns 0x20000000 (0000ms, 1042ms total)
T19B0 001:805 JLINK_ClrBPEx(BPHandle = 0x0000000D)  returns 0x00 (0000ms, 1042ms total)
T19B0 001:805 JLINK_ReadReg(R0)  returns 0x00000000 (0000ms, 1042ms total)
T19B0 001:806 JLINK_WriteMem(0x20000164, 0x0400 Bytes, ...) -- Data:  AD F8 0C 00 0C 20 AD F8 0A 00 69 46 27 48 00 1F ... -- CPU_WriteMem(1024 bytes @ 0x20000164)  returns 0x400 (0012ms, 1054ms total)
T19B0 001:819 JLINK_WriteReg(R0, 0x08002400)  returns 0x00 (0000ms, 1054ms total)
T19B0 001:819 JLINK_WriteReg(R1, 0x00000400)  returns 0x00 (0000ms, 1054ms total)
T19B0 001:820 JLINK_WriteReg(R2, 0x20000164)  returns 0x00 (0000ms, 1055ms total)
T19B0 001:820 JLINK_WriteReg(R3, 0x00000000)  returns 0x00 (0000ms, 1055ms total)
T19B0 001:820 JLINK_WriteReg(R4, 0x00000000)  returns 0x00 (0000ms, 1055ms total)
T19B0 001:820 JLINK_WriteReg(R5, 0x00000000)  returns 0x00 (0000ms, 1055ms total)
T19B0 001:820 JLINK_WriteReg(R6, 0x00000000)  returns 0x00 (0000ms, 1055ms total)
T19B0 001:820 JLINK_WriteReg(R7, 0x00000000)  returns 0x00 (0000ms, 1055ms total)
T19B0 001:820 JLINK_WriteReg(R8, 0x00000000)  returns 0x00 (0000ms, 1055ms total)
T19B0 001:820 JLINK_WriteReg(R9, 0x20000160)  returns 0x00 (0000ms, 1055ms total)
T19B0 001:820 JLINK_WriteReg(R10, 0x00000000)  returns 0x00 (0000ms, 1055ms total)
T19B0 001:820 JLINK_WriteReg(R11, 0x00000000)  returns 0x00 (0000ms, 1055ms total)
T19B0 001:820 JLINK_WriteReg(R12, 0x00000000)  returns 0x00 (0000ms, 1055ms total)
T19B0 001:820 JLINK_WriteReg(R13 (SP), 0x20000800)  returns 0x00 (0000ms, 1055ms total)
T19B0 001:820 JLINK_WriteReg(R14, 0x20000001)  returns 0x00 (0000ms, 1055ms total)
T19B0 001:820 JLINK_WriteReg(R15 (PC), 0x200000F4)  returns 0x00 (0000ms, 1055ms total)
T19B0 001:820 JLINK_WriteReg(XPSR, 0x01000000)  returns 0x00 (0000ms, 1055ms total)
T19B0 001:820 JLINK_WriteReg(MSP, 0x20000800)  returns 0x00 (0000ms, 1055ms total)
T19B0 001:820 JLINK_WriteReg(PSP, 0x20000800)  returns 0x00 (0000ms, 1055ms total)
T19B0 001:820 JLINK_WriteReg(CFBP, 0x00000000)  returns 0x00 (0000ms, 1055ms total)
T19B0 001:820 JLINK_SetBPEx(Addr = 0x20000000, Type = 0xFFFFFFF2)  returns 0x0000000E (0000ms, 1055ms total)
T19B0 001:820 JLINK_Go() (0004ms, 1059ms total)
T19B0 001:824 JLINK_IsHalted()  returns FALSE (0001ms, 1060ms total)
T19B0 001:864 JLINK_IsHalted() -- CPU_ReadMem(2 bytes @ 0x20000000)  returns TRUE (0005ms, 1064ms total)
T19B0 001:869 JLINK_ReadReg(R15 (PC))  returns 0x20000000 (0000ms, 1059ms total)
T19B0 001:869 JLINK_ClrBPEx(BPHandle = 0x0000000E)  returns 0x00 (0000ms, 1059ms total)
T19B0 001:869 JLINK_ReadReg(R0)  returns 0x00000000 (0000ms, 1059ms total)
T19B0 001:870 JLINK_WriteMem(0x20000164, 0x0400 Bytes, ...) -- Data:  40 1A 80 0A 31 49 08 60 2F 49 89 69 2F 4A 12 68 ... -- CPU_WriteMem(1024 bytes @ 0x20000164)  returns 0x400 (0012ms, 1071ms total)
T19B0 001:882 JLINK_WriteReg(R0, 0x08002800)  returns 0x00 (0000ms, 1071ms total)
T19B0 001:882 JLINK_WriteReg(R1, 0x00000400)  returns 0x00 (0000ms, 1071ms total)
T19B0 001:882 JLINK_WriteReg(R2, 0x20000164)  returns 0x00 (0001ms, 1072ms total)
T19B0 001:883 JLINK_WriteReg(R3, 0x00000000)  returns 0x00 (0000ms, 1072ms total)
T19B0 001:883 JLINK_WriteReg(R4, 0x00000000)  returns 0x00 (0000ms, 1072ms total)
T19B0 001:883 JLINK_WriteReg(R5, 0x00000000)  returns 0x00 (0000ms, 1072ms total)
T19B0 001:883 JLINK_WriteReg(R6, 0x00000000)  returns 0x00 (0000ms, 1072ms total)
T19B0 001:883 JLINK_WriteReg(R7, 0x00000000)  returns 0x00 (0000ms, 1072ms total)
T19B0 001:883 JLINK_WriteReg(R8, 0x00000000)  returns 0x00 (0000ms, 1072ms total)
T19B0 001:883 JLINK_WriteReg(R9, 0x20000160)  returns 0x00 (0000ms, 1072ms total)
T19B0 001:883 JLINK_WriteReg(R10, 0x00000000)  returns 0x00 (0000ms, 1072ms total)
T19B0 001:883 JLINK_WriteReg(R11, 0x00000000)  returns 0x00 (0000ms, 1072ms total)
T19B0 001:883 JLINK_WriteReg(R12, 0x00000000)  returns 0x00 (0000ms, 1072ms total)
T19B0 001:883 JLINK_WriteReg(R13 (SP), 0x20000800)  returns 0x00 (0000ms, 1072ms total)
T19B0 001:883 JLINK_WriteReg(R14, 0x20000001)  returns 0x00 (0000ms, 1072ms total)
T19B0 001:883 JLINK_WriteReg(R15 (PC), 0x200000F4)  returns 0x00 (0000ms, 1072ms total)
T19B0 001:883 JLINK_WriteReg(XPSR, 0x01000000)  returns 0x00 (0000ms, 1072ms total)
T19B0 001:883 JLINK_WriteReg(MSP, 0x20000800)  returns 0x00 (0000ms, 1072ms total)
T19B0 001:883 JLINK_WriteReg(PSP, 0x20000800)  returns 0x00 (0000ms, 1072ms total)
T19B0 001:883 JLINK_WriteReg(CFBP, 0x00000000)  returns 0x00 (0000ms, 1072ms total)
T19B0 001:883 JLINK_SetBPEx(Addr = 0x20000000, Type = 0xFFFFFFF2)  returns 0x0000000F (0000ms, 1072ms total)
T19B0 001:883 JLINK_Go() (0003ms, 1075ms total)
T19B0 001:886 JLINK_IsHalted()  returns FALSE (0001ms, 1076ms total)
T19B0 001:891 JLINK_IsHalted()  returns FALSE (0001ms, 1076ms total)
T19B0 001:893 JLINK_IsHalted()  returns FALSE (0001ms, 1076ms total)
T19B0 001:895 JLINK_IsHalted()  returns FALSE (0001ms, 1076ms total)
T19B0 001:900 JLINK_IsHalted()  returns FALSE (0003ms, 1078ms total)
T19B0 001:904 JLINK_IsHalted()  returns FALSE (0001ms, 1076ms total)
T19B0 001:906 JLINK_IsHalted()  returns FALSE (0001ms, 1076ms total)
T19B0 001:908 JLINK_IsHalted()  returns FALSE (0001ms, 1076ms total)
T19B0 001:910 JLINK_IsHalted()  returns FALSE (0002ms, 1077ms total)
T19B0 001:913 JLINK_IsHalted()  returns FALSE (0001ms, 1076ms total)
T19B0 001:915 JLINK_IsHalted()  returns FALSE (0001ms, 1076ms total)
T19B0 001:919 JLINK_IsHalted() -- CPU_ReadMem(2 bytes @ 0x20000000)  returns TRUE (0005ms, 1080ms total)
T19B0 001:924 JLINK_ReadReg(R15 (PC))  returns 0x20000000 (0000ms, 1075ms total)
T19B0 001:924 JLINK_ClrBPEx(BPHandle = 0x0000000F)  returns 0x00 (0000ms, 1075ms total)
T19B0 001:924 JLINK_ReadReg(R0)  returns 0x00000000 (0000ms, 1075ms total)
T19B0 001:925 JLINK_WriteMem(0x20000164, 0x0400 Bytes, ...) -- Data:  00 1D 3F 49 08 60 50 49 03 C9 04 F0 38 FF 04 46 ... -- CPU_WriteMem(1024 bytes @ 0x20000164)  returns 0x400 (0012ms, 1087ms total)
T19B0 001:937 JLINK_WriteReg(R0, 0x08002C00)  returns 0x00 (0000ms, 1087ms total)
T19B0 001:937 JLINK_WriteReg(R1, 0x00000400)  returns 0x00 (0000ms, 1087ms total)
T19B0 001:937 JLINK_WriteReg(R2, 0x20000164)  returns 0x00 (0000ms, 1087ms total)
T19B0 001:938 JLINK_WriteReg(R3, 0x00000000)  returns 0x00 (0000ms, 1088ms total)
T19B0 001:938 JLINK_WriteReg(R4, 0x00000000)  returns 0x00 (0000ms, 1088ms total)
T19B0 001:938 JLINK_WriteReg(R5, 0x00000000)  returns 0x00 (0000ms, 1088ms total)
T19B0 001:938 JLINK_WriteReg(R6, 0x00000000)  returns 0x00 (0000ms, 1088ms total)
T19B0 001:938 JLINK_WriteReg(R7, 0x00000000)  returns 0x00 (0000ms, 1088ms total)
T19B0 001:938 JLINK_WriteReg(R8, 0x00000000)  returns 0x00 (0000ms, 1088ms total)
T19B0 001:938 JLINK_WriteReg(R9, 0x20000160)  returns 0x00 (0000ms, 1088ms total)
T19B0 001:938 JLINK_WriteReg(R10, 0x00000000)  returns 0x00 (0000ms, 1088ms total)
T19B0 001:938 JLINK_WriteReg(R11, 0x00000000)  returns 0x00 (0000ms, 1088ms total)
T19B0 001:938 JLINK_WriteReg(R12, 0x00000000)  returns 0x00 (0000ms, 1088ms total)
T19B0 001:938 JLINK_WriteReg(R13 (SP), 0x20000800)  returns 0x00 (0000ms, 1088ms total)
T19B0 001:938 JLINK_WriteReg(R14, 0x20000001)  returns 0x00 (0000ms, 1088ms total)
T19B0 001:938 JLINK_WriteReg(R15 (PC), 0x200000F4)  returns 0x00 (0000ms, 1088ms total)
T19B0 001:938 JLINK_WriteReg(XPSR, 0x01000000)  returns 0x00 (0000ms, 1088ms total)
T19B0 001:938 JLINK_WriteReg(MSP, 0x20000800)  returns 0x00 (0000ms, 1088ms total)
T19B0 001:938 JLINK_WriteReg(PSP, 0x20000800)  returns 0x00 (0000ms, 1088ms total)
T19B0 001:938 JLINK_WriteReg(CFBP, 0x00000000)  returns 0x00 (0000ms, 1088ms total)
T19B0 001:938 JLINK_SetBPEx(Addr = 0x20000000, Type = 0xFFFFFFF2)  returns 0x00000010 (0000ms, 1088ms total)
T19B0 001:938 JLINK_Go() (0003ms, 1091ms total)
T19B0 001:941 JLINK_IsHalted()  returns FALSE (0001ms, 1092ms total)
T19B0 001:968 JLINK_IsHalted()  returns FALSE (0001ms, 1092ms total)
T19B0 001:970 JLINK_IsHalted()  returns FALSE (0001ms, 1092ms total)
T19B0 001:972 JLINK_IsHalted() -- CPU_ReadMem(2 bytes @ 0x20000000)  returns TRUE (0005ms, 1096ms total)
T19B0 001:977 JLINK_ReadReg(R15 (PC))  returns 0x20000000 (0000ms, 1091ms total)
T19B0 001:977 JLINK_ClrBPEx(BPHandle = 0x00000010)  returns 0x00 (0000ms, 1091ms total)
T19B0 001:977 JLINK_ReadReg(R0)  returns 0x00000000 (0000ms, 1091ms total)
T19B0 001:978 JLINK_WriteMem(0x20000164, 0x0400 Bytes, ...) -- Data:  05 49 08 60 13 48 01 68 03 48 00 68 02 F0 2B F8 ... -- CPU_WriteMem(1024 bytes @ 0x20000164)  returns 0x400 (0013ms, 1104ms total)
T19B0 001:991 JLINK_WriteReg(R0, 0x08003000)  returns 0x00 (0000ms, 1104ms total)
T19B0 001:991 JLINK_WriteReg(R1, 0x00000400)  returns 0x00 (0000ms, 1104ms total)
T19B0 001:991 JLINK_WriteReg(R2, 0x20000164)  returns 0x00 (0000ms, 1104ms total)
T19B0 001:991 JLINK_WriteReg(R3, 0x00000000)  returns 0x00 (0000ms, 1104ms total)
T19B0 001:991 JLINK_WriteReg(R4, 0x00000000)  returns 0x00 (0000ms, 1104ms total)
T19B0 001:991 JLINK_WriteReg(R5, 0x00000000)  returns 0x00 (0000ms, 1104ms total)
T19B0 001:991 JLINK_WriteReg(R6, 0x00000000)  returns 0x00 (0000ms, 1104ms total)
T19B0 001:991 JLINK_WriteReg(R7, 0x00000000)  returns 0x00 (0000ms, 1104ms total)
T19B0 001:991 JLINK_WriteReg(R8, 0x00000000)  returns 0x00 (0000ms, 1104ms total)
